Circuit: * C:\Users\paulo\Desktop\EL\NOR_NEW3_VGS_VDS.asc

Instance "m:c2_mp1:1": Length shorter than recommended for a level 1 MOSFET.
Instance "m:c2_mn1:1": Length shorter than recommended for a level 1 MOSFET.
Instance "m:c2_mn2:1": Length shorter than recommended for a level 1 MOSFET.
Instance "m:c1_mn3:1": Length shorter than recommended for a level 1 MOSFET.
Instance "m:c2_mp2:1": Length shorter than recommended for a level 1 MOSFET.
Instance "m:c1_mp3:1": Length shorter than recommended for a level 1 MOSFET.
Instance "m:c1_mp2:1": Length shorter than recommended for a level 1 MOSFET.
Instance "m:c1_mn2:1": Length shorter than recommended for a level 1 MOSFET.
Instance "m:c1_mp1:1": Length shorter than recommended for a level 1 MOSFET.
Instance "m:c1_mn1:1": Length shorter than recommended for a level 1 MOSFET.
Direct Newton iteration for .op point succeeded.
Semiconductor Device Operating Points:
                        --- MOSFET Transistors ---
Name:        m:c2_mp1:1      m:c2_mn1:1      m:c2_mn2:1      m:c1_mn3:1      m:c2_mp2:1
Model:     c2_mp1:hef4007p c2_mn1:hef4007n c2_mn2:hef4007n c1_mn3:hef4007n c2_mp2:hef4007p
Id:           -1.96e-11        3.89e-12       -2.50e-12       -1.24e-12       -1.96e-11
Vgs:          -5.00e+00        0.00e+00       -5.00e+00       -1.24e+00       -5.00e+00
Vds:          -1.92e-08        1.94e+00       -3.75e+00       -1.24e+00       -1.92e-08
Vbs:           0.00e+00        0.00e+00       -5.00e+00       -1.24e+00        1.92e-08
Vth:          -1.60e+00        1.42e+00        2.59e+00        1.42e+00       -1.60e+00
Vdsat:        -3.40e+00        0.00e+00        0.00e+00        0.00e+00       -3.40e+00
Gm:            5.77e-12        0.00e+00        0.00e+00        0.00e+00        5.77e-12
Gds:           1.02e-03        0.00e+00        0.00e+00        0.00e+00        1.02e-03
Gmb:           3.72e-12        0.00e+00        0.00e+00        0.00e+00        3.72e-12
Cbd:           2.00e-13        7.94e-14        9.89e-14        2.00e-13        2.00e-13
Cbs:           2.00e-13        2.00e-13        4.53e-14        9.89e-14        2.00e-13
Cgsov:         0.00e+00        0.00e+00        0.00e+00        0.00e+00        0.00e+00
Cgdov:         0.00e+00        0.00e+00        0.00e+00        0.00e+00        0.00e+00
Cgbov:         0.00e+00        0.00e+00        0.00e+00        0.00e+00        0.00e+00
Cgs:           1.22e-13        0.00e+00        0.00e+00        0.00e+00        1.22e-13
Cgd:           1.22e-13        0.00e+00        0.00e+00        0.00e+00        1.22e-13
Cgb:           0.00e+00        2.47e-13        2.47e-13        2.47e-13        0.00e+00

Name:        m:c1_mp3:1      m:c1_mp2:1      m:c1_mn2:1      m:c1_mp1:1      m:c1_mn1:1
Model:     c1_mp3:hef4007p c1_mp2:hef4007p c1_mn2:hef4007n c1_mp1:hef4007p c1_mn1:hef4007n
Id:            9.06e-19        3.85e-20        1.52e-09       -1.00e-11        1.00e-11
Vgs:          -5.00e+00        2.86e-08        3.06e+00       -5.00e+00        0.00e+00
Vds:           8.88e-16        3.85e-08        3.06e+00       -9.81e-09        5.00e+00
Vbs:           8.88e-16        3.85e-08       -1.94e+00        0.00e+00        0.00e+00
Vth:          -1.60e+00       -1.60e+00        3.06e+00       -1.60e+00        1.42e+00
Vdsat:        -3.40e+00       -0.00e+00        1.81e-03       -3.40e+00        0.00e+00
Gm:            2.66e-19        0.00e+00        1.67e-06        2.94e-12        0.00e+00
Gds:           1.02e-03        0.00e+00        2.31e-11        1.02e-03        0.00e+00
Gmb:           1.72e-19        0.00e+00        1.05e-06        1.90e-12        0.00e+00
Cbd:           2.00e-13        2.00e-13        4.53e-14        2.00e-13        4.53e-14
Cbs:           2.00e-13        2.00e-13        7.94e-14        2.00e-13        2.00e-13
Cgsov:         0.00e+00        0.00e+00        0.00e+00        0.00e+00        0.00e+00
Cgdov:         0.00e+00        0.00e+00        0.00e+00        0.00e+00        0.00e+00
Cgbov:         0.00e+00        0.00e+00        0.00e+00        0.00e+00        0.00e+00
Cgs:           1.22e-13        0.00e+00        1.64e-13        1.22e-13        0.00e+00
Cgd:           1.22e-13        1.62e-13        0.00e+00        1.22e-13        0.00e+00
Cgb:           0.00e+00        0.00e+00        0.00e+00        0.00e+00        2.47e-13



Date: Fri Dec 22 13:34:51 2023
Total elapsed time: 0.417 seconds.

tnom = 27
temp = 27
method = trap
totiter = 10
traniter = 0
tranpoints = 0
accept = 0
rejected = 0
matrix size = 12
fillins = 0
solver = Normal
Avg thread counts: 8.0/0.0/8.0/8.0
Matrix Compiler1: 786 bytes object code size
Matrix Compiler2: 1.18 KB object code size
